T1740 000:029.756   SEGGER J-Link V7.80 Log File
T1740 000:029.846   DLL Compiled: Sep  9 2022 10:58:20
T1740 000:029.850   Logging started @ 2026-04-10 08:44
T1740 000:029.854 - 29.856ms
T1740 000:029.860 JLINK_SetWarnOutHandler(...)
T1740 000:029.865 - 0.006ms
T1740 000:029.870 JLINK_OpenEx(...)
T1740 000:030.760   Firmware: J-Link ARM-OB STM32 compiled Aug 22 2012 19:52:04
T1740 000:031.047   Firmware: J-Link ARM-OB STM32 compiled Aug 22 2012 19:52:04
T1740 000:032.877   Hardware: V7.00
T1740 000:032.896   S/N: 20090928
T1740 000:032.907   OEM: SEGGER
T1740 000:032.917   Feature(s): RDI,FlashDL,FlashBP,JFlash,GDB
T1740 000:033.754   TELNET listener socket opened on port 19021
T1740 000:033.820   WEBSRV WEBSRV_Init(): Starting webserver thread(s)
T1740 000:033.925   WEBSRV Webserver running on local port 19080
T1740 000:037.182 - 7.320ms returns "O.K."
T1740 000:037.202 JLINK_SetErrorOutHandler(...)
T1740 000:037.206 - 0.005ms
T1740 000:037.217 JLINK_ExecCommand("ProjectFile = "D:\Stm32G071CB_motor\MDK-ARM\JLinkSettings.ini"", ...). 
T1740 000:044.662   Ref file found at: D:\Keil_v5\ARM\Segger\JLinkDevices.ref
T1740 000:044.712   REF file references invalid XML file: C:\Program Files\SEGGER\JLink_V780\JLinkDevices.xml
T1740 000:046.595   Device "STM32G071CB" selected.
T1740 000:046.766 - 9.551ms returns 0x00
T1740 000:049.062 JLINK_ExecCommand("Device = STM32G071CBUx", ...). 
T1740 000:050.778   Device "STM32G071CB" selected.
T1740 000:051.030 - 1.961ms returns 0x00
T1740 000:051.042 JLINK_ExecCommand("DisableConnectionTimeout", ...). 
T1740 000:051.048 - 0.002ms returns 0x01
T1740 000:051.053 JLINK_GetHardwareVersion()
T1740 000:051.057 - 0.005ms returns 70000
T1740 000:051.061 JLINK_GetDLLVersion()
T1740 000:051.068 - 0.008ms returns 78000
T1740 000:051.072 JLINK_GetOEMString(...)
T1740 000:051.077 JLINK_GetFirmwareString(...)
T1740 000:051.080 - 0.004ms
T1740 000:055.680 JLINK_GetDLLVersion()
T1740 000:055.694 - 0.016ms returns 78000
T1740 000:055.699 JLINK_GetCompileDateTime()
T1740 000:055.702 - 0.004ms
T1740 000:056.987 JLINK_GetFirmwareString(...)
T1740 000:056.996 - 0.010ms
T1740 000:058.404 JLINK_GetHardwareVersion()
T1740 000:058.412 - 0.009ms returns 70000
T1740 000:063.934 JLINK_GetSN()
T1740 000:063.943 - 0.011ms returns 20090928
T1740 000:065.175 JLINK_GetOEMString(...)
T1740 000:067.833 JLINK_TIF_Select(JLINKARM_TIF_SWD)
T1740 000:068.333 - 0.506ms returns 0x00
T1740 000:068.343 JLINK_HasError()
T1740 000:068.353 JLINK_SetSpeed(5000)
T1740 000:068.444 - 0.092ms
T1740 000:068.449 JLINK_GetId()
T1740 000:070.244   InitTarget() start
T1740 000:070.255    J-Link Script File: Executing InitTarget()
T1740 000:089.905   InitTarget() end
T1740 000:091.830   Found SW-DP with ID 0x0BC11477
T1740 000:094.345   Old FW that does not support reading DPIDR via DAP jobs
T1740 000:098.407   DPv0 detected
T1740 000:099.614   CoreSight SoC-400 or earlier
T1740 000:100.915   Scanning AP map to find all available APs
T1740 000:106.461   AP[1]: Stopped AP scan as end of AP map has been reached
T1740 000:107.693   AP[0]: AHB-AP (IDR: 0x04770031)
T1740 000:108.890   Iterating through AP map to find AHB-AP to use
T1740 000:113.355   AP[0]: Core found
T1740 000:114.979   AP[0]: AHB-AP ROM base: 0xF0000000
T1740 000:118.055   CPUID register: 0x410CC601. Implementer code: 0x41 (ARM)
T1740 000:119.468   Found Cortex-M0 r0p1, Little endian.
T1740 000:221.432   -- Max. mem block: 0x00002C18
T1740 000:221.705   CPU_ReadMem(4 bytes @ 0xE000EDF0)
T1740 000:222.245   CPU_ReadMem(4 bytes @ 0xE0002000)
T1740 000:228.861   FPUnit: 4 code (BP) slots and 0 literal slots
T1740 000:228.873   CPU_ReadMem(4 bytes @ 0xE000EDFC)
T1740 000:229.259   CPU_WriteMem(4 bytes @ 0xE000EDFC)
T1740 000:229.702   CPU_ReadMem(4 bytes @ 0xE0001000)
T1740 000:230.167   CPU_WriteMem(4 bytes @ 0xE0001000)
T1740 000:234.598   CoreSight components:
T1740 000:237.872   ROMTbl[0] @ F0000000
T1740 000:237.883   CPU_ReadMem(64 bytes @ 0xF0000000)
T1740 000:238.801   CPU_ReadMem(32 bytes @ 0xE00FFFE0)
T1740 000:240.988   [0][0]: E00FF000 CID B105100D PID 000BB4C0 ROM Table
T1740 000:242.373   ROMTbl[1] @ E00FF000
T1740 000:242.382   CPU_ReadMem(64 bytes @ 0xE00FF000)
T1740 000:243.378   CPU_ReadMem(32 bytes @ 0xE000EFE0)
T1740 000:245.458   [1][0]: E000E000 CID B105E00D PID 000BB008 SCS
T1740 000:245.467   CPU_ReadMem(32 bytes @ 0xE0001FE0)
T1740 000:251.995   [1][1]: E0001000 CID B105E00D PID 000BB00A DWT
T1740 000:252.010   CPU_ReadMem(32 bytes @ 0xE0002FE0)
T1740 000:254.058   [1][2]: E0002000 CID B105E00D PID 000BB00B FPB
T1740 000:254.630 - 186.187ms returns 0x0BC11477
T1740 000:254.647 JLINK_GetDLLVersion()
T1740 000:254.650 - 0.004ms returns 78000
T1740 000:254.737 JLINK_CORE_GetFound()
T1740 000:254.745 - 0.009ms returns 0x60000FF
T1740 000:254.749 JLINK_GetDebugInfo(0x100 = JLINKARM_ROM_TABLE_ADDR_INDEX)
T1740 000:254.755   Value=0xF0000000
T1740 000:254.759 - 0.011ms returns 0
T1740 000:256.116 JLINK_GetDebugInfo(0x100 = JLINKARM_ROM_TABLE_ADDR_INDEX)
T1740 000:256.123   Value=0xF0000000
T1740 000:256.127 - 0.012ms returns 0
T1740 000:256.131 JLINK_GetDebugInfo(0x101 = JLINKARM_DEBUG_INFO_ETM_ADDR_INDEX)
T1740 000:256.134   Value=0x00000000
T1740 000:256.138 - 0.008ms returns 0
T1740 000:256.143 JLINK_ReadMem(0xE0041FF0, 0x10 Bytes, ...)
T1740 000:256.160   CPU_ReadMem(16 bytes @ 0xE0041FF0)
T1740 000:256.831   Data:  00 00 00 00 00 00 00 00 00 00 00 00 00 00 00 00
T1740 000:256.839 - 0.697ms returns 0
T1740 000:256.845 JLINK_GetDebugInfo(0x102 = JLINKARM_DEBUG_INFO_MTB_ADDR_INDEX)
T1740 000:256.848   Value=0x00000000
T1740 000:256.852 - 0.008ms returns 0
T1740 000:256.855 JLINK_GetDebugInfo(0x103 = JLINKARM_DEBUG_INFO_TPIU_ADDR_INDEX)
T1740 000:256.858   Value=0x00000000
T1740 000:256.862 - 0.008ms returns 0
T1740 000:256.866 JLINK_ReadMem(0xE0040FF0, 0x10 Bytes, ...)
T1740 000:256.872   CPU_ReadMem(16 bytes @ 0xE0040FF0)
T1740 000:257.535   Data:  00 00 00 00 00 00 00 00 00 00 00 00 00 00 00 00
T1740 000:257.543 - 0.679ms returns 0
T1740 000:257.549 JLINK_GetDebugInfo(0x104 = JLINKARM_DEBUG_INFO_ITM_ADDR_INDEX)
T1740 000:257.552   Value=0xE0000000
T1740 000:257.556 - 0.008ms returns 0
T1740 000:257.560 JLINK_GetDebugInfo(0x105 = JLINKARM_DEBUG_INFO_DWT_ADDR_INDEX)
T1740 000:257.563   Value=0xE0001000
T1740 000:257.568 - 0.009ms returns 0
T1740 000:257.571 JLINK_GetDebugInfo(0x106 = JLINKARM_DEBUG_INFO_FPB_ADDR_INDEX)
T1740 000:257.574   Value=0xE0002000
T1740 000:257.578 - 0.008ms returns 0
T1740 000:257.581 JLINK_GetDebugInfo(0x107 = JLINKARM_DEBUG_INFO_NVIC_ADDR_INDEX)
T1740 000:257.584   Value=0xE000E000
T1740 000:257.588 - 0.008ms returns 0
T1740 000:257.591 JLINK_GetDebugInfo(0x10C = JLINKARM_DEBUG_INFO_DBG_ADDR_INDEX)
T1740 000:257.594   Value=0xE000EDF0
T1740 000:257.598 - 0.008ms returns 0
T1740 000:257.602 JLINK_ReadMemU32(0xE000ED00, 0x1 Items)
T1740 000:257.608   CPU_ReadMem(4 bytes @ 0xE000ED00)
T1740 000:257.992   Data:  01 C6 0C 41
T1740 000:258.001   Debug reg: CPUID
T1740 000:258.005 - 0.405ms returns 1 (0x1)
T1740 000:258.010 JLINK_HasError()
T1740 000:258.013 JLINK_SetResetType(JLINKARM_CM3_RESET_TYPE_NORMAL)
T1740 000:258.017 - 0.004ms returns JLINKARM_CM3_RESET_TYPE_NORMAL
T1740 000:258.020 JLINK_Reset()
T1740 000:258.028   CPU is running
T1740 000:258.033   CPU_WriteMem(4 bytes @ 0xE000EDF0)
T1740 000:258.463   CPU is running
T1740 000:258.483   CPU_WriteMem(4 bytes @ 0xE000EDFC)
T1740 000:260.224   Reset: Halt core after reset via DEMCR.VC_CORERESET.
T1740 000:261.905   Reset: Reset device via AIRCR.SYSRESETREQ.
T1740 000:261.915   CPU is running
T1740 000:261.920   CPU_WriteMem(4 bytes @ 0xE000ED0C)
T1740 000:315.322   CPU_ReadMem(4 bytes @ 0xE000EDF0)
T1740 000:315.834   CPU_ReadMem(4 bytes @ 0xE000EDF0)
T1740 000:316.304   CPU is running
T1740 000:316.334   CPU_WriteMem(4 bytes @ 0xE000EDF0)
T1740 000:316.853   CPU is running
T1740 000:316.881   CPU_WriteMem(4 bytes @ 0xE000EDFC)
T1740 000:322.440   CPU_ReadMem(4 bytes @ 0xE000EDF0)
T1740 000:325.851   CPU_WriteMem(4 bytes @ 0xE0002000)
T1740 000:326.373   CPU_ReadMem(4 bytes @ 0xE000EDFC)
T1740 000:326.887   CPU_ReadMem(4 bytes @ 0xE0001000)
T1740 000:327.376   CPU_WriteMem(4 bytes @ 0xE0001000)
T1740 000:327.885 - 69.877ms
T1740 000:328.036 JLINK_Halt()
T1740 000:328.058 - 0.030ms returns 0x00
T1740 000:328.081 JLINK_IsHalted()
T1740 000:328.100 - 0.028ms returns TRUE
T1740 000:328.123 JLINK_ReadMemU32(0xE000EDF0, 0x1 Items)
T1740 000:328.156   CPU_ReadMem(4 bytes @ 0xE000EDF0)
T1740 000:328.608   Data:  03 00 03 01
T1740 000:328.637   Debug reg: DHCSR
T1740 000:328.662 - 0.548ms returns 1 (0x1)
T1740 000:328.695 JLINK_WriteU32_64(0xE000EDF0, 0xA05F0003)
T1740 000:328.714   Debug reg: DHCSR
T1740 000:329.614   CPU_WriteMem(4 bytes @ 0xE000EDF0)
T1740 000:330.148 - 1.466ms returns 0 (0x00000000)
T1740 000:330.176 JLINK_WriteU32_64(0xE000EDFC, 0x01000000)
T1740 000:330.193   Debug reg: DEMCR
T1740 000:330.225   CPU_WriteMem(4 bytes @ 0xE000EDFC)
T1740 000:330.699 - 0.533ms returns 0 (0x00000000)
T1740 000:343.093 JLINK_GetHWStatus(...)
T1740 000:343.334 - 0.247ms returns 0
T1740 000:347.059 JLINK_GetNumBPUnits(Type = 0xFFFFFF00)
T1740 000:347.076 - 0.018ms returns 0x04
T1740 000:347.080 JLINK_GetNumBPUnits(Type = 0xF0)
T1740 000:347.083 - 0.004ms returns 0x2000
T1740 000:347.087 JLINK_GetNumWPUnits()
T1740 000:347.089 - 0.004ms returns 2
T1740 000:356.133 JLINK_GetSpeed()
T1740 000:356.148 - 0.016ms returns 4000
T1740 000:358.528 JLINK_ReadMemU32(0xE000E004, 0x1 Items)
T1740 000:358.548   CPU_ReadMem(4 bytes @ 0xE000E004)
T1740 000:358.944   Data:  00 00 00 00
T1740 000:358.949 - 0.422ms returns 1 (0x1)
T1740 000:358.956 JLINK_Halt()
T1740 000:358.960 - 0.004ms returns 0x00
T1740 000:358.963 JLINK_IsHalted()
T1740 000:358.967 - 0.005ms returns TRUE
T1740 000:360.137 JLINK_WriteMem(0x20000000, 0x114 Bytes, ...)
T1740 000:360.143   Data:  00 BE 0A E0 0D 78 2D 06 68 40 08 24 40 00 00 D3 ...
T1740 000:360.328   CPU_WriteMem(276 bytes @ 0x20000000)
T1740 000:363.552 - 3.433ms returns 0x114
T1740 000:363.586 JLINK_HasError()
T1740 000:363.591 JLINK_WriteReg(R0, 0x08000000)
T1740 000:363.595 - 0.006ms returns 0
T1740 000:363.599 JLINK_WriteReg(R1, 0x00F42400)
T1740 000:363.602 - 0.004ms returns 0
T1740 000:363.605 JLINK_WriteReg(R2, 0x00000001)
T1740 000:363.608 - 0.004ms returns 0
T1740 000:363.612 JLINK_WriteReg(R3, 0x00000000)
T1740 000:363.615 - 0.004ms returns 0
T1740 000:363.618 JLINK_WriteReg(R4, 0x00000000)
T1740 000:363.621 - 0.004ms returns 0
T1740 000:363.624 JLINK_WriteReg(R5, 0x00000000)
T1740 000:363.627 - 0.004ms returns 0
T1740 000:363.631 JLINK_WriteReg(R6, 0x00000000)
T1740 000:363.633 - 0.004ms returns 0
T1740 000:363.637 JLINK_WriteReg(R7, 0x00000000)
T1740 000:363.640 - 0.004ms returns 0
T1740 000:363.643 JLINK_WriteReg(R8, 0x00000000)
T1740 000:363.649 - 0.007ms returns 0
T1740 000:363.652 JLINK_WriteReg(R9, 0x20000110)
T1740 000:363.655 - 0.004ms returns 0
T1740 000:363.658 JLINK_WriteReg(R10, 0x00000000)
T1740 000:363.661 - 0.004ms returns 0
T1740 000:363.665 JLINK_WriteReg(R11, 0x00000000)
T1740 000:363.668 - 0.004ms returns 0
T1740 000:363.671 JLINK_WriteReg(R12, 0x00000000)
T1740 000:363.674 - 0.004ms returns 0
T1740 000:363.677 JLINK_WriteReg(R13 (SP), 0x20001000)
T1740 000:363.681 - 0.004ms returns 0
T1740 000:363.684 JLINK_WriteReg(R14, 0x20000001)
T1740 000:363.687 - 0.004ms returns 0
T1740 000:363.690 JLINK_WriteReg(R15 (PC), 0x2000002C)
T1740 000:363.695 - 0.005ms returns 0
T1740 000:363.698 JLINK_WriteReg(XPSR, 0x01000000)
T1740 000:363.701 - 0.004ms returns 0
T1740 000:363.704 JLINK_WriteReg(MSP, 0x20001000)
T1740 000:363.707 - 0.004ms returns 0
T1740 000:363.711 JLINK_WriteReg(PSP, 0x20001000)
T1740 000:363.714 - 0.004ms returns 0
T1740 000:363.717 JLINK_WriteReg(CFBP, 0x00000000)
T1740 000:363.720 - 0.004ms returns 0
T1740 000:363.723 JLINK_SetBPEx(Addr = 0x20000000, Type = 0xFFFFFFF2)
T1740 000:363.730   CPU_ReadMem(2 bytes @ 0x20000000)
T1740 000:364.141 - 0.419ms returns 0x00000001
T1740 000:364.145 JLINK_Go()
T1740 000:364.150   CPU_WriteMem(2 bytes @ 0x20000000)
T1740 000:364.587   CPU_ReadMem(4 bytes @ 0xE0001000)
T1740 000:364.936   CPU_WriteMem(4 bytes @ 0xE0001000)
T1740 000:365.334   CPU_WriteMem(4 bytes @ 0xE0002008)
T1740 000:365.338   CPU_WriteMem(4 bytes @ 0xE000200C)
T1740 000:365.342   CPU_WriteMem(4 bytes @ 0xE0002010)
T1740 000:365.347   CPU_WriteMem(4 bytes @ 0xE0002014)
T1740 000:366.729   CPU_WriteMem(4 bytes @ 0xE0001004)
T1740 000:369.689 - 5.546ms
T1740 000:369.695 JLINK_IsHalted()
T1740 000:372.434   CPU_ReadMem(2 bytes @ 0x20000000)
T1740 000:372.841 - 3.147ms returns TRUE
T1740 000:372.847 JLINK_ReadReg(R15 (PC))
T1740 000:372.852 - 0.007ms returns 0x20000000
T1740 000:372.856 JLINK_ClrBPEx(BPHandle = 0x00000001)
T1740 000:372.860 - 0.005ms returns 0x00
T1740 000:372.864 JLINK_ReadReg(R0)
T1740 000:372.868 - 0.005ms returns 0x00000000
T1740 000:373.231 JLINK_HasError()
T1740 000:373.240 JLINK_WriteReg(R0, 0x08000000)
T1740 000:373.245 - 0.007ms returns 0
T1740 000:373.249 JLINK_WriteReg(R1, 0x00000800)
T1740 000:373.253 - 0.005ms returns 0
T1740 000:373.257 JLINK_WriteReg(R2, 0x000000FF)
T1740 000:373.261 - 0.005ms returns 0
T1740 000:373.265 JLINK_WriteReg(R3, 0x00000000)
T1740 000:373.269 - 0.005ms returns 0
T1740 000:373.273 JLINK_WriteReg(R4, 0x00000000)
T1740 000:373.276 - 0.005ms returns 0
T1740 000:373.280 JLINK_WriteReg(R5, 0x00000000)
T1740 000:373.284 - 0.005ms returns 0
T1740 000:373.288 JLINK_WriteReg(R6, 0x00000000)
T1740 000:373.292 - 0.005ms returns 0
T1740 000:373.296 JLINK_WriteReg(R7, 0x00000000)
T1740 000:373.299 - 0.005ms returns 0
T1740 000:373.303 JLINK_WriteReg(R8, 0x00000000)
T1740 000:373.307 - 0.005ms returns 0
T1740 000:373.311 JLINK_WriteReg(R9, 0x20000110)
T1740 000:373.315 - 0.005ms returns 0
T1740 000:373.319 JLINK_WriteReg(R10, 0x00000000)
T1740 000:373.322 - 0.005ms returns 0
T1740 000:373.326 JLINK_WriteReg(R11, 0x00000000)
T1740 000:373.330 - 0.005ms returns 0
T1740 000:373.334 JLINK_WriteReg(R12, 0x00000000)
T1740 000:373.338 - 0.005ms returns 0
T1740 000:373.342 JLINK_WriteReg(R13 (SP), 0x20001000)
T1740 000:373.346 - 0.005ms returns 0
T1740 000:373.350 JLINK_WriteReg(R14, 0x20000001)
T1740 000:373.354 - 0.005ms returns 0
T1740 000:373.358 JLINK_WriteReg(R15 (PC), 0x2000004A)
T1740 000:373.361 - 0.005ms returns 0
T1740 000:373.365 JLINK_WriteReg(XPSR, 0x01000000)
T1740 000:373.369 - 0.005ms returns 0
T1740 000:373.373 JLINK_WriteReg(MSP, 0x20001000)
T1740 000:373.377 - 0.005ms returns 0
T1740 000:373.381 JLINK_WriteReg(PSP, 0x20001000)
T1740 000:373.384 - 0.005ms returns 0
T1740 000:373.388 JLINK_WriteReg(CFBP, 0x00000000)
T1740 000:373.392 - 0.005ms returns 0
T1740 000:373.396 JLINK_SetBPEx(Addr = 0x20000000, Type = 0xFFFFFFF2)
T1740 000:373.401 - 0.006ms returns 0x00000002
T1740 000:373.405 JLINK_Go()
T1740 000:373.414   CPU_ReadMem(4 bytes @ 0xE0001000)
T1740 000:376.413 - 3.010ms
T1740 000:376.419 JLINK_IsHalted()
T1740 000:379.297   CPU_ReadMem(2 bytes @ 0x20000000)
T1740 000:379.694 - 3.277ms returns TRUE
T1740 000:379.702 JLINK_ReadReg(R15 (PC))
T1740 000:379.707 - 0.007ms returns 0x20000000
T1740 000:379.758 JLINK_ClrBPEx(BPHandle = 0x00000002)
T1740 000:379.763 - 0.007ms returns 0x00
T1740 000:379.769 JLINK_ReadReg(R0)
T1740 000:379.773 - 0.006ms returns 0x00000001
T1740 000:379.779 JLINK_HasError()
T1740 000:379.784 JLINK_WriteReg(R0, 0x08000000)
T1740 000:379.789 - 0.006ms returns 0
T1740 000:379.794 JLINK_WriteReg(R1, 0x00000800)
T1740 000:379.798 - 0.006ms returns 0
T1740 000:379.803 JLINK_WriteReg(R2, 0x000000FF)
T1740 000:379.808 - 0.006ms returns 0
T1740 000:379.813 JLINK_WriteReg(R3, 0x00000000)
T1740 000:379.817 - 0.006ms returns 0
T1740 000:379.822 JLINK_WriteReg(R4, 0x00000000)
T1740 000:379.827 - 0.006ms returns 0
T1740 000:379.832 JLINK_WriteReg(R5, 0x00000000)
T1740 000:379.836 - 0.006ms returns 0
T1740 000:379.841 JLINK_WriteReg(R6, 0x00000000)
T1740 000:379.846 - 0.006ms returns 0
T1740 000:379.851 JLINK_WriteReg(R7, 0x00000000)
T1740 000:379.855 - 0.006ms returns 0
T1740 000:379.860 JLINK_WriteReg(R8, 0x00000000)
T1740 000:379.909 - 0.053ms returns 0
T1740 000:379.916 JLINK_WriteReg(R9, 0x20000110)
T1740 000:379.921 - 0.006ms returns 0
T1740 000:379.926 JLINK_WriteReg(R10, 0x00000000)
T1740 000:379.931 - 0.006ms returns 0
T1740 000:379.936 JLINK_WriteReg(R11, 0x00000000)
T1740 000:379.940 - 0.006ms returns 0
T1740 000:379.945 JLINK_WriteReg(R12, 0x00000000)
T1740 000:379.950 - 0.006ms returns 0
T1740 000:379.955 JLINK_WriteReg(R13 (SP), 0x20001000)
T1740 000:379.959 - 0.006ms returns 0
T1740 000:379.964 JLINK_WriteReg(R14, 0x20000001)
T1740 000:379.969 - 0.006ms returns 0
T1740 000:379.974 JLINK_WriteReg(R15 (PC), 0x20000084)
T1740 000:379.978 - 0.006ms returns 0
T1740 000:379.984 JLINK_WriteReg(XPSR, 0x01000000)
T1740 000:379.988 - 0.006ms returns 0
T1740 000:379.993 JLINK_WriteReg(MSP, 0x20001000)
T1740 000:379.998 - 0.006ms returns 0
T1740 000:380.003 JLINK_WriteReg(PSP, 0x20001000)
T1740 000:380.007 - 0.006ms returns 0
T1740 000:380.012 JLINK_WriteReg(CFBP, 0x00000000)
T1740 000:380.017 - 0.006ms returns 0
T1740 000:380.022 JLINK_SetBPEx(Addr = 0x20000000, Type = 0xFFFFFFF2)
T1740 000:380.027 - 0.007ms returns 0x00000003
T1740 000:380.032 JLINK_Go()
T1740 000:380.040   CPU_ReadMem(4 bytes @ 0xE0001000)
T1740 000:383.059 - 3.083ms
T1740 000:383.126 JLINK_IsHalted()
T1740 000:383.497 - 0.373ms returns FALSE
T1740 000:383.504 JLINK_HasError()
T1740 000:393.286 JLINK_IsHalted()
T1740 000:393.666 - 0.382ms returns FALSE
T1740 000:393.672 JLINK_HasError()
T1740 000:395.694 JLINK_IsHalted()
T1740 000:396.102 - 0.409ms returns FALSE
T1740 000:396.106 JLINK_HasError()
T1740 000:398.136 JLINK_IsHalted()
T1740 000:398.520 - 0.385ms returns FALSE
T1740 000:398.523 JLINK_HasError()
T1740 000:400.580 JLINK_IsHalted()
T1740 000:401.033 - 0.458ms returns FALSE
T1740 000:401.041 JLINK_HasError()
T1740 000:402.524 JLINK_IsHalted()
T1740 000:402.942 - 0.420ms returns FALSE
T1740 000:402.947 JLINK_HasError()
T1740 000:404.520 JLINK_IsHalted()
T1740 000:404.889 - 0.371ms returns FALSE
T1740 000:404.894 JLINK_HasError()
T1740 000:406.549 JLINK_IsHalted()
T1740 000:409.353   CPU_ReadMem(2 bytes @ 0x20000000)
T1740 000:409.766 - 3.219ms returns TRUE
T1740 000:409.773 JLINK_ReadReg(R15 (PC))
T1740 000:409.781 - 0.009ms returns 0x20000000
T1740 000:409.787 JLINK_ClrBPEx(BPHandle = 0x00000003)
T1740 000:409.793 - 0.008ms returns 0x00
T1740 000:409.799 JLINK_ReadReg(R0)
T1740 000:409.806 - 0.008ms returns 0x00000000
T1740 000:410.273 JLINK_HasError()
T1740 000:410.283 JLINK_WriteReg(R0, 0x08000800)
T1740 000:410.290 - 0.010ms returns 0
T1740 000:410.297 JLINK_WriteReg(R1, 0x00000800)
T1740 000:410.303 - 0.007ms returns 0
T1740 000:410.309 JLINK_WriteReg(R2, 0x000000FF)
T1740 000:410.314 - 0.007ms returns 0
T1740 000:410.320 JLINK_WriteReg(R3, 0x00000000)
T1740 000:410.325 - 0.007ms returns 0
T1740 000:410.331 JLINK_WriteReg(R4, 0x00000000)
T1740 000:410.336 - 0.007ms returns 0
T1740 000:410.342 JLINK_WriteReg(R5, 0x00000000)
T1740 000:410.348 - 0.007ms returns 0
T1740 000:410.354 JLINK_WriteReg(R6, 0x00000000)
T1740 000:410.359 - 0.007ms returns 0
T1740 000:410.365 JLINK_WriteReg(R7, 0x00000000)
T1740 000:410.370 - 0.007ms returns 0
T1740 000:410.376 JLINK_WriteReg(R8, 0x00000000)
T1740 000:410.381 - 0.007ms returns 0
T1740 000:410.387 JLINK_WriteReg(R9, 0x20000110)
T1740 000:410.392 - 0.007ms returns 0
T1740 000:410.398 JLINK_WriteReg(R10, 0x00000000)
T1740 000:410.404 - 0.007ms returns 0
T1740 000:410.410 JLINK_WriteReg(R11, 0x00000000)
T1740 000:410.415 - 0.008ms returns 0
T1740 000:410.421 JLINK_WriteReg(R12, 0x00000000)
T1740 000:410.427 - 0.008ms returns 0
T1740 000:410.433 JLINK_WriteReg(R13 (SP), 0x20001000)
T1740 000:410.439 - 0.008ms returns 0
T1740 000:410.445 JLINK_WriteReg(R14, 0x20000001)
T1740 000:410.451 - 0.008ms returns 0
T1740 000:410.457 JLINK_WriteReg(R15 (PC), 0x2000004A)
T1740 000:410.463 - 0.008ms returns 0
T1740 000:410.469 JLINK_WriteReg(XPSR, 0x01000000)
T1740 000:410.479 - 0.013ms returns 0
T1740 000:410.486 JLINK_WriteReg(MSP, 0x20001000)
T1740 000:410.494 - 0.013ms returns 0
T1740 000:410.503 JLINK_WriteReg(PSP, 0x20001000)
T1740 000:410.508 - 0.008ms returns 0
T1740 000:410.515 JLINK_WriteReg(CFBP, 0x00000000)
T1740 000:410.520 - 0.008ms returns 0
T1740 000:410.526 JLINK_SetBPEx(Addr = 0x20000000, Type = 0xFFFFFFF2)
T1740 000:410.533 - 0.009ms returns 0x00000004
T1740 000:410.540 JLINK_Go()
T1740 000:410.553   CPU_ReadMem(4 bytes @ 0xE0001000)
T1740 000:413.623 - 3.088ms
T1740 000:413.634 JLINK_IsHalted()
T1740 000:416.329   CPU_ReadMem(2 bytes @ 0x20000000)
T1740 000:416.731 - 3.109ms returns TRUE
T1740 000:416.753 JLINK_ReadReg(R15 (PC))
T1740 000:416.767 - 0.017ms returns 0x20000000
T1740 000:416.777 JLINK_ClrBPEx(BPHandle = 0x00000004)
T1740 000:416.786 - 0.012ms returns 0x00
T1740 000:416.795 JLINK_ReadReg(R0)
T1740 000:416.803 - 0.011ms returns 0x00000001
T1740 000:416.813 JLINK_HasError()
T1740 000:416.822 JLINK_WriteReg(R0, 0x08000800)
T1740 000:416.831 - 0.012ms returns 0
T1740 000:416.841 JLINK_WriteReg(R1, 0x00000800)
T1740 000:416.849 - 0.011ms returns 0
T1740 000:416.858 JLINK_WriteReg(R2, 0x000000FF)
T1740 000:416.865 - 0.011ms returns 0
T1740 000:416.874 JLINK_WriteReg(R3, 0x00000000)
T1740 000:416.882 - 0.011ms returns 0
T1740 000:416.891 JLINK_WriteReg(R4, 0x00000000)
T1740 000:416.899 - 0.011ms returns 0
T1740 000:416.907 JLINK_WriteReg(R5, 0x00000000)
T1740 000:416.915 - 0.011ms returns 0
T1740 000:416.924 JLINK_WriteReg(R6, 0x00000000)
T1740 000:416.931 - 0.011ms returns 0
T1740 000:416.940 JLINK_WriteReg(R7, 0x00000000)
T1740 000:416.948 - 0.011ms returns 0
T1740 000:416.957 JLINK_WriteReg(R8, 0x00000000)
T1740 000:416.964 - 0.016ms returns 0
T1740 000:416.979 JLINK_WriteReg(R9, 0x20000110)
T1740 000:416.986 - 0.011ms returns 0
T1740 000:416.995 JLINK_WriteReg(R10, 0x00000000)
T1740 000:417.003 - 0.011ms returns 0
T1740 000:417.048 JLINK_WriteReg(R11, 0x00000000)
T1740 000:417.056 - 0.012ms returns 0
T1740 000:417.065 JLINK_WriteReg(R12, 0x00000000)
T1740 000:417.073 - 0.011ms returns 0
T1740 000:417.082 JLINK_WriteReg(R13 (SP), 0x20001000)
T1740 000:417.090 - 0.012ms returns 0
T1740 000:417.099 JLINK_WriteReg(R14, 0x20000001)
T1740 000:417.107 - 0.011ms returns 0
T1740 000:417.116 JLINK_WriteReg(R15 (PC), 0x20000084)
T1740 000:417.124 - 0.011ms returns 0
T1740 000:417.132 JLINK_WriteReg(XPSR, 0x01000000)
T1740 000:417.140 - 0.011ms returns 0
T1740 000:417.149 JLINK_WriteReg(MSP, 0x20001000)
T1740 000:417.157 - 0.011ms returns 0
T1740 000:417.166 JLINK_WriteReg(PSP, 0x20001000)
T1740 000:417.173 - 0.011ms returns 0
T1740 000:417.182 JLINK_WriteReg(CFBP, 0x00000000)
T1740 000:417.190 - 0.011ms returns 0
T1740 000:417.199 JLINK_SetBPEx(Addr = 0x20000000, Type = 0xFFFFFFF2)
T1740 000:417.208 - 0.012ms returns 0x00000005
T1740 000:417.217 JLINK_Go()
T1740 000:417.235   CPU_ReadMem(4 bytes @ 0xE0001000)
T1740 000:421.524 - 4.323ms
T1740 000:421.549 JLINK_IsHalted()
T1740 000:421.924 - 0.379ms returns FALSE
T1740 000:421.933 JLINK_HasError()
T1740 000:423.611 JLINK_IsHalted()
T1740 000:423.964 - 0.356ms returns FALSE
T1740 000:423.973 JLINK_HasError()
T1740 000:425.964 JLINK_IsHalted()
T1740 000:426.374 - 0.414ms returns FALSE
T1740 000:426.384 JLINK_HasError()
T1740 000:428.395 JLINK_IsHalted()
T1740 000:428.801 - 0.411ms returns FALSE
T1740 000:428.813 JLINK_HasError()
T1740 000:430.919 JLINK_IsHalted()
T1740 000:431.382 - 0.478ms returns FALSE
T1740 000:431.411 JLINK_HasError()
T1740 000:432.852 JLINK_IsHalted()
T1740 000:433.246 - 0.404ms returns FALSE
T1740 000:433.269 JLINK_HasError()
T1740 000:434.836 JLINK_IsHalted()
T1740 000:435.304 - 0.474ms returns FALSE
T1740 000:435.320 JLINK_HasError()
T1740 000:437.219 JLINK_IsHalted()
T1740 000:437.595 - 0.381ms returns FALSE
T1740 000:437.609 JLINK_HasError()
T1740 000:439.591 JLINK_IsHalted()
T1740 000:439.999 - 0.414ms returns FALSE
T1740 000:440.015 JLINK_HasError()
T1740 000:441.992 JLINK_IsHalted()
T1740 000:442.378 - 0.392ms returns FALSE
T1740 000:442.395 JLINK_HasError()
T1740 000:444.049 JLINK_IsHalted()
T1740 000:446.883   CPU_ReadMem(2 bytes @ 0x20000000)
T1740 000:447.410 - 3.368ms returns TRUE
T1740 000:447.431 JLINK_ReadReg(R15 (PC))
T1740 000:447.451 - 0.026ms returns 0x20000000
T1740 000:447.469 JLINK_ClrBPEx(BPHandle = 0x00000005)
T1740 000:447.485 - 0.022ms returns 0x00
T1740 000:447.503 JLINK_ReadReg(R0)
T1740 000:447.518 - 0.022ms returns 0x00000000
T1740 000:449.006 JLINK_HasError()
T1740 000:449.041 JLINK_WriteReg(R0, 0x08001000)
T1740 000:449.071 - 0.036ms returns 0
T1740 000:449.087 JLINK_WriteReg(R1, 0x00000800)
T1740 000:449.101 - 0.020ms returns 0
T1740 000:449.117 JLINK_WriteReg(R2, 0x000000FF)
T1740 000:449.130 - 0.020ms returns 0
T1740 000:449.146 JLINK_WriteReg(R3, 0x00000000)
T1740 000:449.159 - 0.019ms returns 0
T1740 000:449.174 JLINK_WriteReg(R4, 0x00000000)
T1740 000:449.188 - 0.019ms returns 0
T1740 000:449.203 JLINK_WriteReg(R5, 0x00000000)
T1740 000:449.216 - 0.019ms returns 0
T1740 000:449.232 JLINK_WriteReg(R6, 0x00000000)
T1740 000:449.245 - 0.019ms returns 0
T1740 000:449.260 JLINK_WriteReg(R7, 0x00000000)
T1740 000:449.274 - 0.019ms returns 0
T1740 000:449.289 JLINK_WriteReg(R8, 0x00000000)
T1740 000:449.302 - 0.019ms returns 0
T1740 000:449.318 JLINK_WriteReg(R9, 0x20000110)
T1740 000:449.331 - 0.019ms returns 0
T1740 000:449.346 JLINK_WriteReg(R10, 0x00000000)
T1740 000:449.360 - 0.019ms returns 0
T1740 000:449.444 JLINK_WriteReg(R11, 0x00000000)
T1740 000:449.458 - 0.020ms returns 0
T1740 000:449.473 JLINK_WriteReg(R12, 0x00000000)
T1740 000:449.486 - 0.019ms returns 0
T1740 000:449.502 JLINK_WriteReg(R13 (SP), 0x20001000)
T1740 000:449.517 - 0.021ms returns 0
T1740 000:449.532 JLINK_WriteReg(R14, 0x20000001)
T1740 000:449.545 - 0.019ms returns 0
T1740 000:449.646 JLINK_WriteReg(R15 (PC), 0x2000004A)
T1740 000:449.675 - 0.036ms returns 0
T1740 000:449.692 JLINK_WriteReg(XPSR, 0x01000000)
T1740 000:449.706 - 0.021ms returns 0
T1740 000:449.722 JLINK_WriteReg(MSP, 0x20001000)
T1740 000:449.736 - 0.020ms returns 0
T1740 000:449.752 JLINK_WriteReg(PSP, 0x20001000)
T1740 000:449.766 - 0.020ms returns 0
T1740 000:449.781 JLINK_WriteReg(CFBP, 0x00000000)
T1740 000:449.794 - 0.019ms returns 0
T1740 000:449.810 JLINK_SetBPEx(Addr = 0x20000000, Type = 0xFFFFFFF2)
T1740 000:449.827 - 0.023ms returns 0x00000006
T1740 000:449.843 JLINK_Go()
T1740 000:449.873   CPU_ReadMem(4 bytes @ 0xE0001000)
T1740 000:453.026 - 3.202ms
T1740 000:453.056 JLINK_IsHalted()
T1740 000:455.838   CPU_ReadMem(2 bytes @ 0x20000000)
T1740 000:456.273 - 3.223ms returns TRUE
T1740 000:456.290 JLINK_ReadReg(R15 (PC))
T1740 000:456.304 - 0.019ms returns 0x20000000
T1740 000:456.320 JLINK_ClrBPEx(BPHandle = 0x00000006)
T1740 000:456.333 - 0.017ms returns 0x00
T1740 000:456.346 JLINK_ReadReg(R0)
T1740 000:456.358 - 0.017ms returns 0x00000001
T1740 000:456.372 JLINK_HasError()
T1740 000:456.386 JLINK_WriteReg(R0, 0x08001000)
T1740 000:456.398 - 0.017ms returns 0
T1740 000:456.411 JLINK_WriteReg(R1, 0x00000800)
T1740 000:456.423 - 0.016ms returns 0
T1740 000:456.435 JLINK_WriteReg(R2, 0x000000FF)
T1740 000:456.447 - 0.016ms returns 0
T1740 000:456.460 JLINK_WriteReg(R3, 0x00000000)
T1740 000:456.471 - 0.016ms returns 0
T1740 000:456.484 JLINK_WriteReg(R4, 0x00000000)
T1740 000:456.495 - 0.016ms returns 0
T1740 000:456.508 JLINK_WriteReg(R5, 0x00000000)
T1740 000:456.519 - 0.016ms returns 0
T1740 000:456.532 JLINK_WriteReg(R6, 0x00000000)
T1740 000:456.544 - 0.016ms returns 0
T1740 000:456.557 JLINK_WriteReg(R7, 0x00000000)
T1740 000:456.568 - 0.016ms returns 0
T1740 000:456.581 JLINK_WriteReg(R8, 0x00000000)
T1740 000:456.592 - 0.016ms returns 0
T1740 000:456.605 JLINK_WriteReg(R9, 0x20000110)
T1740 000:456.616 - 0.016ms returns 0
T1740 000:456.629 JLINK_WriteReg(R10, 0x00000000)
T1740 000:456.640 - 0.016ms returns 0
T1740 000:456.653 JLINK_WriteReg(R11, 0x00000000)
T1740 000:456.664 - 0.016ms returns 0
T1740 000:456.677 JLINK_WriteReg(R12, 0x00000000)
T1740 000:456.688 - 0.016ms returns 0
T1740 000:456.701 JLINK_WriteReg(R13 (SP), 0x20001000)
T1740 000:456.720 - 0.024ms returns 0
T1740 000:456.733 JLINK_WriteReg(R14, 0x20000001)
T1740 000:456.745 - 0.016ms returns 0
T1740 000:456.758 JLINK_WriteReg(R15 (PC), 0x20000084)
T1740 000:456.769 - 0.016ms returns 0
T1740 000:456.782 JLINK_WriteReg(XPSR, 0x01000000)
T1740 000:456.794 - 0.016ms returns 0
T1740 000:456.815 JLINK_WriteReg(MSP, 0x20001000)
T1740 000:456.827 - 0.017ms returns 0
T1740 000:456.901 JLINK_WriteReg(PSP, 0x20001000)
T1740 000:456.914 - 0.018ms returns 0
T1740 000:456.927 JLINK_WriteReg(CFBP, 0x00000000)
T1740 000:456.938 - 0.016ms returns 0
T1740 000:456.951 JLINK_SetBPEx(Addr = 0x20000000, Type = 0xFFFFFFF2)
T1740 000:456.965 - 0.018ms returns 0x00000007
T1740 000:456.978 JLINK_Go()
T1740 000:457.001   CPU_ReadMem(4 bytes @ 0xE0001000)
T1740 000:460.032 - 3.060ms
T1740 000:460.048 JLINK_IsHalted()
T1740 000:460.453 - 0.410ms returns FALSE
T1740 000:460.469 JLINK_HasError()
T1740 000:462.474 JLINK_IsHalted()
T1740 000:462.905 - 0.437ms returns FALSE
T1740 000:462.921 JLINK_HasError()
T1740 000:464.503 JLINK_IsHalted()
T1740 000:464.949 - 0.466ms returns FALSE
T1740 000:464.985 JLINK_HasError()
T1740 000:468.960 JLINK_IsHalted()
T1740 000:469.378 - 0.423ms returns FALSE
T1740 000:469.391 JLINK_HasError()
T1740 000:470.949 JLINK_IsHalted()
T1740 000:471.371 - 0.428ms returns FALSE
T1740 000:471.385 JLINK_HasError()
T1740 000:473.388 JLINK_IsHalted()
T1740 000:473.799 - 0.417ms returns FALSE
T1740 000:473.815 JLINK_HasError()
T1740 000:475.433 JLINK_IsHalted()
T1740 000:475.834 - 0.408ms returns FALSE
T1740 000:475.851 JLINK_HasError()
T1740 000:477.848 JLINK_IsHalted()
T1740 000:478.271 - 0.430ms returns FALSE
T1740 000:478.290 JLINK_HasError()
T1740 000:479.852 JLINK_IsHalted()
T1740 000:480.299 - 0.455ms returns FALSE
T1740 000:480.320 JLINK_HasError()
T1740 000:481.918 JLINK_IsHalted()
T1740 000:484.794   CPU_ReadMem(2 bytes @ 0x20000000)
T1740 000:485.283 - 3.376ms returns TRUE
T1740 000:485.310 JLINK_ReadReg(R15 (PC))
T1740 000:485.335 - 0.033ms returns 0x20000000
T1740 000:485.357 JLINK_ClrBPEx(BPHandle = 0x00000007)
T1740 000:485.376 - 0.028ms returns 0x00
T1740 000:485.445 JLINK_ReadReg(R0)
T1740 000:485.465 - 0.028ms returns 0x00000000
T1740 000:486.955 JLINK_HasError()
T1740 000:486.994 JLINK_WriteReg(R0, 0x08001800)
T1740 000:487.019 - 0.033ms returns 0
T1740 000:487.039 JLINK_WriteReg(R1, 0x00000800)
T1740 000:487.055 - 0.024ms returns 0
T1740 000:487.074 JLINK_WriteReg(R2, 0x000000FF)
T1740 000:487.091 - 0.024ms returns 0
T1740 000:487.110 JLINK_WriteReg(R3, 0x00000000)
T1740 000:487.126 - 0.024ms returns 0
T1740 000:487.144 JLINK_WriteReg(R4, 0x00000000)
T1740 000:487.161 - 0.024ms returns 0
T1740 000:487.179 JLINK_WriteReg(R5, 0x00000000)
T1740 000:487.196 - 0.023ms returns 0
T1740 000:487.214 JLINK_WriteReg(R6, 0x00000000)
T1740 000:487.230 - 0.022ms returns 0
T1740 000:487.247 JLINK_WriteReg(R7, 0x00000000)
T1740 000:487.261 - 0.021ms returns 0
T1740 000:487.278 JLINK_WriteReg(R8, 0x00000000)
T1740 000:487.293 - 0.021ms returns 0
T1740 000:487.310 JLINK_WriteReg(R9, 0x20000110)
T1740 000:487.324 - 0.021ms returns 0
T1740 000:487.341 JLINK_WriteReg(R10, 0x00000000)
T1740 000:487.356 - 0.021ms returns 0
T1740 000:487.373 JLINK_WriteReg(R11, 0x00000000)
T1740 000:487.388 - 0.028ms returns 0
T1740 000:487.411 JLINK_WriteReg(R12, 0x00000000)
T1740 000:487.426 - 0.021ms returns 0
T1740 000:487.443 JLINK_WriteReg(R13 (SP), 0x20001000)
T1740 000:487.459 - 0.023ms returns 0
T1740 000:487.476 JLINK_WriteReg(R14, 0x20000001)
T1740 000:487.491 - 0.021ms returns 0
T1740 000:487.507 JLINK_WriteReg(R15 (PC), 0x2000004A)
T1740 000:487.522 - 0.022ms returns 0
T1740 000:487.539 JLINK_WriteReg(XPSR, 0x01000000)
T1740 000:487.554 - 0.021ms returns 0
T1740 000:487.571 JLINK_WriteReg(MSP, 0x20001000)
T1740 000:487.586 - 0.021ms returns 0
T1740 000:487.603 JLINK_WriteReg(PSP, 0x20001000)
T1740 000:487.617 - 0.021ms returns 0
T1740 000:487.634 JLINK_WriteReg(CFBP, 0x00000000)
T1740 000:487.772 - 0.151ms returns 0
T1740 000:487.796 JLINK_SetBPEx(Addr = 0x20000000, Type = 0xFFFFFFF2)
T1740 000:487.815 - 0.025ms returns 0x00000008
T1740 000:487.832 JLINK_Go()
T1740 000:487.875   CPU_ReadMem(4 bytes @ 0xE0001000)
T1740 000:491.150 - 3.327ms
T1740 000:491.170 JLINK_IsHalted()
T1740 000:494.023   CPU_ReadMem(2 bytes @ 0x20000000)
T1740 000:494.438 - 3.277ms returns TRUE
T1740 000:494.462 JLINK_ReadReg(R15 (PC))
T1740 000:494.481 - 0.025ms returns 0x20000000
T1740 000:494.497 JLINK_ClrBPEx(BPHandle = 0x00000008)
T1740 000:494.512 - 0.020ms returns 0x00
T1740 000:494.528 JLINK_ReadReg(R0)
T1740 000:494.542 - 0.020ms returns 0x00000001
T1740 000:494.558 JLINK_HasError()
T1740 000:494.575 JLINK_WriteReg(R0, 0x08001800)
T1740 000:494.590 - 0.021ms returns 0
T1740 000:494.605 JLINK_WriteReg(R1, 0x00000800)
T1740 000:494.618 - 0.019ms returns 0
T1740 000:494.634 JLINK_WriteReg(R2, 0x000000FF)
T1740 000:494.647 - 0.019ms returns 0
T1740 000:494.662 JLINK_WriteReg(R3, 0x00000000)
T1740 000:494.676 - 0.019ms returns 0
T1740 000:494.691 JLINK_WriteReg(R4, 0x00000000)
T1740 000:494.704 - 0.019ms returns 0
T1740 000:494.720 JLINK_WriteReg(R5, 0x00000000)
T1740 000:494.733 - 0.019ms returns 0
T1740 000:494.748 JLINK_WriteReg(R6, 0x00000000)
T1740 000:494.761 - 0.019ms returns 0
T1740 000:494.776 JLINK_WriteReg(R7, 0x00000000)
T1740 000:494.797 - 0.026ms returns 0
T1740 000:494.812 JLINK_WriteReg(R8, 0x00000000)
T1740 000:494.825 - 0.019ms returns 0
T1740 000:494.840 JLINK_WriteReg(R9, 0x20000110)
T1740 000:494.853 - 0.019ms returns 0
T1740 000:494.869 JLINK_WriteReg(R10, 0x00000000)
T1740 000:494.882 - 0.019ms returns 0
T1740 000:494.897 JLINK_WriteReg(R11, 0x00000000)
T1740 000:494.910 - 0.019ms returns 0
T1740 000:494.926 JLINK_WriteReg(R12, 0x00000000)
T1740 000:494.939 - 0.019ms returns 0
T1740 000:494.954 JLINK_WriteReg(R13 (SP), 0x20001000)
T1740 000:494.968 - 0.020ms returns 0
T1740 000:494.984 JLINK_WriteReg(R14, 0x20000001)
T1740 000:494.999 - 0.021ms returns 0
T1740 000:495.015 JLINK_WriteReg(R15 (PC), 0x20000084)
T1740 000:495.030 - 0.021ms returns 0
T1740 000:495.047 JLINK_WriteReg(XPSR, 0x01000000)
T1740 000:495.062 - 0.021ms returns 0
T1740 000:495.078 JLINK_WriteReg(MSP, 0x20001000)
T1740 000:495.093 - 0.021ms returns 0
T1740 000:495.110 JLINK_WriteReg(PSP, 0x20001000)
T1740 000:495.124 - 0.021ms returns 0
T1740 000:495.141 JLINK_WriteReg(CFBP, 0x00000000)
T1740 000:495.156 - 0.021ms returns 0
T1740 000:495.173 JLINK_SetBPEx(Addr = 0x20000000, Type = 0xFFFFFFF2)
T1740 000:495.190 - 0.024ms returns 0x00000009
T1740 000:495.207 JLINK_Go()
T1740 000:495.236   CPU_ReadMem(4 bytes @ 0xE0001000)
T1740 000:498.300 - 3.112ms
T1740 000:498.336 JLINK_IsHalted()
T1740 000:498.739 - 0.410ms returns FALSE
T1740 000:498.758 JLINK_HasError()
T1740 000:502.349 JLINK_IsHalted()
T1740 000:502.776 - 0.432ms returns FALSE
T1740 000:502.790 JLINK_HasError()
T1740 000:504.361 JLINK_IsHalted()
T1740 000:504.742 - 0.387ms returns FALSE
T1740 000:504.756 JLINK_HasError()
T1740 000:506.391 JLINK_IsHalted()
T1740 000:506.769 - 0.383ms returns FALSE
T1740 000:506.782 JLINK_HasError()
T1740 000:508.351 JLINK_IsHalted()
T1740 000:508.749 - 0.404ms returns FALSE
T1740 000:508.763 JLINK_HasError()
T1740 000:510.416 JLINK_IsHalted()
T1740 000:510.811 - 0.402ms returns FALSE
T1740 000:510.830 JLINK_HasError()
T1740 000:512.832 JLINK_IsHalted()
T1740 000:513.212 - 0.387ms returns FALSE
T1740 000:513.230 JLINK_HasError()
T1740 000:515.234 JLINK_IsHalted()
T1740 000:515.611 - 0.384ms returns FALSE
T1740 000:515.631 JLINK_HasError()
T1740 000:517.236 JLINK_IsHalted()
T1740 000:517.639 - 0.410ms returns FALSE
T1740 000:517.658 JLINK_HasError()
T1740 000:519.650 JLINK_IsHalted()
T1740 000:520.036 - 0.394ms returns FALSE
T1740 000:520.057 JLINK_HasError()
T1740 000:521.658 JLINK_IsHalted()
T1740 000:524.946   CPU_ReadMem(2 bytes @ 0x20000000)
T1740 000:525.543 - 4.033ms returns TRUE
T1740 000:525.741 JLINK_ReadReg(R15 (PC))
T1740 000:525.777 - 0.053ms returns 0x20000000
T1740 000:525.814 JLINK_ClrBPEx(BPHandle = 0x00000009)
T1740 000:525.835 - 0.030ms returns 0x00
T1740 000:525.857 JLINK_ReadReg(R0)
T1740 000:525.876 - 0.027ms returns 0x00000000
T1740 000:527.452 JLINK_HasError()
T1740 000:527.491 JLINK_WriteReg(R0, 0x08002000)
T1740 000:527.515 - 0.032ms returns 0
T1740 000:527.536 JLINK_WriteReg(R1, 0x00000800)
T1740 000:527.552 - 0.066ms returns 0
T1740 000:527.613 JLINK_WriteReg(R2, 0x000000FF)
T1740 000:527.629 - 0.024ms returns 0
T1740 000:527.648 JLINK_WriteReg(R3, 0x00000000)
T1740 000:527.664 - 0.024ms returns 0
T1740 000:527.683 JLINK_WriteReg(R4, 0x00000000)
T1740 000:527.699 - 0.023ms returns 0
T1740 000:527.717 JLINK_WriteReg(R5, 0x00000000)
T1740 000:527.734 - 0.024ms returns 0
T1740 000:527.752 JLINK_WriteReg(R6, 0x00000000)
T1740 000:527.768 - 0.023ms returns 0
T1740 000:527.787 JLINK_WriteReg(R7, 0x00000000)
T1740 000:527.803 - 0.023ms returns 0
T1740 000:527.821 JLINK_WriteReg(R8, 0x00000000)
T1740 000:527.837 - 0.023ms returns 0
T1740 000:527.855 JLINK_WriteReg(R9, 0x20000110)
T1740 000:527.871 - 0.023ms returns 0
T1740 000:527.890 JLINK_WriteReg(R10, 0x00000000)
T1740 000:527.906 - 0.024ms returns 0
T1740 000:527.924 JLINK_WriteReg(R11, 0x00000000)
T1740 000:527.941 - 0.024ms returns 0
T1740 000:527.959 JLINK_WriteReg(R12, 0x00000000)
T1740 000:527.975 - 0.023ms returns 0
T1740 000:527.993 JLINK_WriteReg(R13 (SP), 0x20001000)
T1740 000:528.012 - 0.026ms returns 0
T1740 000:528.030 JLINK_WriteReg(R14, 0x20000001)
T1740 000:528.046 - 0.024ms returns 0
T1740 000:528.065 JLINK_WriteReg(R15 (PC), 0x2000004A)
T1740 000:528.082 - 0.024ms returns 0
T1740 000:528.100 JLINK_WriteReg(XPSR, 0x01000000)
T1740 000:528.116 - 0.022ms returns 0
T1740 000:528.132 JLINK_WriteReg(MSP, 0x20001000)
T1740 000:528.147 - 0.021ms returns 0
T1740 000:528.163 JLINK_WriteReg(PSP, 0x20001000)
T1740 000:528.178 - 0.021ms returns 0
T1740 000:528.194 JLINK_WriteReg(CFBP, 0x00000000)
T1740 000:528.209 - 0.021ms returns 0
T1740 000:528.226 JLINK_SetBPEx(Addr = 0x20000000, Type = 0xFFFFFFF2)
T1740 000:528.244 - 0.025ms returns 0x0000000A
T1740 000:528.261 JLINK_Go()
T1740 000:528.299   CPU_ReadMem(4 bytes @ 0xE0001000)
T1740 000:531.817 - 3.581ms
T1740 000:531.858 JLINK_IsHalted()
T1740 000:534.770   CPU_ReadMem(2 bytes @ 0x20000000)
T1740 000:535.262 - 3.414ms returns TRUE
T1740 000:535.297 JLINK_ReadReg(R15 (PC))
T1740 000:535.321 - 0.031ms returns 0x20000000
T1740 000:535.417 JLINK_ClrBPEx(BPHandle = 0x0000000A)
T1740 000:535.436 - 0.026ms returns 0x00
T1740 000:535.455 JLINK_ReadReg(R0)
T1740 000:535.470 - 0.022ms returns 0x00000001
T1740 000:535.488 JLINK_HasError()
T1740 000:535.506 JLINK_WriteReg(R0, 0x08002000)
T1740 000:535.523 - 0.024ms returns 0
T1740 000:535.541 JLINK_WriteReg(R1, 0x00000800)
T1740 000:535.556 - 0.022ms returns 0
T1740 000:535.573 JLINK_WriteReg(R2, 0x000000FF)
T1740 000:535.588 - 0.022ms returns 0
T1740 000:535.605 JLINK_WriteReg(R3, 0x00000000)
T1740 000:535.619 - 0.021ms returns 0
T1740 000:535.636 JLINK_WriteReg(R4, 0x00000000)
T1740 000:535.651 - 0.021ms returns 0
T1740 000:535.668 JLINK_WriteReg(R5, 0x00000000)
T1740 000:535.682 - 0.021ms returns 0
T1740 000:535.699 JLINK_WriteReg(R6, 0x00000000)
T1740 000:535.713 - 0.021ms returns 0
T1740 000:535.737 JLINK_WriteReg(R7, 0x00000000)
T1740 000:535.752 - 0.021ms returns 0
T1740 000:535.768 JLINK_WriteReg(R8, 0x00000000)
T1740 000:535.783 - 0.021ms returns 0
T1740 000:535.800 JLINK_WriteReg(R9, 0x20000110)
T1740 000:535.814 - 0.021ms returns 0
T1740 000:535.831 JLINK_WriteReg(R10, 0x00000000)
T1740 000:535.846 - 0.021ms returns 0
T1740 000:535.863 JLINK_WriteReg(R11, 0x00000000)
T1740 000:535.877 - 0.021ms returns 0
T1740 000:535.894 JLINK_WriteReg(R12, 0x00000000)
T1740 000:535.909 - 0.021ms returns 0
T1740 000:535.925 JLINK_WriteReg(R13 (SP), 0x20001000)
T1740 000:535.941 - 0.022ms returns 0
T1740 000:535.958 JLINK_WriteReg(R14, 0x20000001)
T1740 000:535.973 - 0.021ms returns 0
T1740 000:535.989 JLINK_WriteReg(R15 (PC), 0x20000084)
T1740 000:536.015 - 0.033ms returns 0
T1740 000:536.032 JLINK_WriteReg(XPSR, 0x01000000)
T1740 000:536.047 - 0.022ms returns 0
T1740 000:536.064 JLINK_WriteReg(MSP, 0x20001000)
T1740 000:536.079 - 0.021ms returns 0
T1740 000:536.095 JLINK_WriteReg(PSP, 0x20001000)
T1740 000:536.110 - 0.021ms returns 0
T1740 000:536.127 JLINK_WriteReg(CFBP, 0x00000000)
T1740 000:536.142 - 0.021ms returns 0
T1740 000:536.158 JLINK_SetBPEx(Addr = 0x20000000, Type = 0xFFFFFFF2)
T1740 000:536.176 - 0.024ms returns 0x0000000B
T1740 000:536.194 JLINK_Go()
T1740 000:536.220   CPU_ReadMem(4 bytes @ 0xE0001000)
T1740 000:539.313 - 3.127ms
T1740 000:539.333 JLINK_IsHalted()
T1740 000:539.774 - 0.448ms returns FALSE
T1740 000:539.792 JLINK_HasError()
T1740 000:541.746 JLINK_IsHalted()
T1740 000:542.175 - 0.438ms returns FALSE
T1740 000:542.197 JLINK_HasError()
T1740 000:543.772 JLINK_IsHalted()
T1740 000:544.235 - 0.472ms returns FALSE
T1740 000:544.256 JLINK_HasError()
T1740 000:546.239 JLINK_IsHalted()
T1740 000:546.674 - 0.444ms returns FALSE
T1740 000:546.697 JLINK_HasError()
T1740 000:548.274 JLINK_IsHalted()
T1740 000:548.742 - 0.481ms returns FALSE
T1740 000:548.770 JLINK_HasError()
T1740 000:550.348 JLINK_IsHalted()
T1740 000:550.812 - 0.479ms returns FALSE
T1740 000:550.841 JLINK_HasError()
T1740 000:552.813 JLINK_IsHalted()
T1740 000:553.252 - 0.451ms returns FALSE
T1740 000:553.279 JLINK_HasError()
T1740 000:554.814 JLINK_IsHalted()
T1740 000:555.275 - 0.479ms returns FALSE
T1740 000:555.306 JLINK_HasError()
T1740 000:556.878 JLINK_IsHalted()
T1740 000:557.294 - 0.427ms returns FALSE
T1740 000:557.320 JLINK_HasError()
T1740 000:558.799 JLINK_IsHalted()
T1740 000:559.392 - 0.602ms returns FALSE
T1740 000:559.413 JLINK_HasError()
T1740 000:560.849 JLINK_IsHalted()
T1740 000:563.742   CPU_ReadMem(2 bytes @ 0x20000000)
T1740 000:564.179 - 3.338ms returns TRUE
T1740 000:564.202 JLINK_ReadReg(R15 (PC))
T1740 000:564.222 - 0.028ms returns 0x20000000
T1740 000:564.242 JLINK_ClrBPEx(BPHandle = 0x0000000B)
T1740 000:564.259 - 0.025ms returns 0x00
T1740 000:564.279 JLINK_ReadReg(R0)
T1740 000:564.295 - 0.024ms returns 0x00000000
T1740 000:565.710 JLINK_HasError()
T1740 000:565.748 JLINK_WriteReg(R0, 0x08002800)
T1740 000:565.772 - 0.032ms returns 0
T1740 000:565.792 JLINK_WriteReg(R1, 0x00000800)
T1740 000:565.818 - 0.033ms returns 0
T1740 000:565.837 JLINK_WriteReg(R2, 0x000000FF)
T1740 000:565.853 - 0.024ms returns 0
T1740 000:565.871 JLINK_WriteReg(R3, 0x00000000)
T1740 000:565.888 - 0.024ms returns 0
T1740 000:565.907 JLINK_WriteReg(R4, 0x00000000)
T1740 000:565.923 - 0.024ms returns 0
T1740 000:565.942 JLINK_WriteReg(R5, 0x00000000)
T1740 000:565.958 - 0.024ms returns 0
T1740 000:565.977 JLINK_WriteReg(R6, 0x00000000)
T1740 000:565.993 - 0.024ms returns 0
T1740 000:566.012 JLINK_WriteReg(R7, 0x00000000)
T1740 000:566.028 - 0.024ms returns 0
T1740 000:566.047 JLINK_WriteReg(R8, 0x00000000)
T1740 000:566.063 - 0.023ms returns 0
T1740 000:566.082 JLINK_WriteReg(R9, 0x20000110)
T1740 000:566.098 - 0.023ms returns 0
T1740 000:566.114 JLINK_WriteReg(R10, 0x00000000)
T1740 000:566.129 - 0.021ms returns 0
T1740 000:566.146 JLINK_WriteReg(R11, 0x00000000)
T1740 000:566.161 - 0.021ms returns 0
T1740 000:566.177 JLINK_WriteReg(R12, 0x00000000)
T1740 000:566.298 - 0.128ms returns 0
T1740 000:566.322 JLINK_WriteReg(R13 (SP), 0x20001000)
T1740 000:566.341 - 0.025ms returns 0
T1740 000:566.358 JLINK_WriteReg(R14, 0x20000001)
T1740 000:566.374 - 0.023ms returns 0
T1740 000:566.392 JLINK_WriteReg(R15 (PC), 0x2000004A)
T1740 000:566.407 - 0.022ms returns 0
T1740 000:566.424 JLINK_WriteReg(XPSR, 0x01000000)
T1740 000:566.438 - 0.021ms returns 0
T1740 000:566.455 JLINK_WriteReg(MSP, 0x20001000)
T1740 000:566.470 - 0.021ms returns 0
T1740 000:566.487 JLINK_WriteReg(PSP, 0x20001000)
T1740 000:566.502 - 0.021ms returns 0
T1740 000:566.518 JLINK_WriteReg(CFBP, 0x00000000)
T1740 000:566.533 - 0.021ms returns 0
T1740 000:566.550 JLINK_SetBPEx(Addr = 0x20000000, Type = 0xFFFFFFF2)
T1740 000:566.576 - 0.033ms returns 0x0000000C
T1740 000:566.646 JLINK_Go()
T1740 000:566.681   CPU_ReadMem(4 bytes @ 0xE0001000)
T1740 000:569.827 - 3.201ms
T1740 000:569.859 JLINK_IsHalted()
T1740 000:572.683   CPU_ReadMem(2 bytes @ 0x20000000)
T1740 000:573.154 - 3.301ms returns TRUE
T1740 000:573.171 JLINK_ReadReg(R15 (PC))
T1740 000:573.184 - 0.018ms returns 0x20000000
T1740 000:573.197 JLINK_ClrBPEx(BPHandle = 0x0000000C)
T1740 000:573.208 - 0.016ms returns 0x00
T1740 000:573.220 JLINK_ReadReg(R0)
T1740 000:573.231 - 0.015ms returns 0x00000001
T1740 000:573.244 JLINK_HasError()
T1740 000:573.256 JLINK_WriteReg(R0, 0x08002800)
T1740 000:573.268 - 0.016ms returns 0
T1740 000:573.280 JLINK_WriteReg(R1, 0x00000800)
T1740 000:573.291 - 0.015ms returns 0
T1740 000:573.303 JLINK_WriteReg(R2, 0x000000FF)
T1740 000:573.313 - 0.015ms returns 0
T1740 000:573.325 JLINK_WriteReg(R3, 0x00000000)
T1740 000:573.336 - 0.015ms returns 0
T1740 000:573.348 JLINK_WriteReg(R4, 0x00000000)
T1740 000:573.358 - 0.015ms returns 0
T1740 000:573.370 JLINK_WriteReg(R5, 0x00000000)
T1740 000:573.380 - 0.021ms returns 0
T1740 000:573.399 JLINK_WriteReg(R6, 0x00000000)
T1740 000:573.409 - 0.015ms returns 0
T1740 000:573.421 JLINK_WriteReg(R7, 0x00000000)
T1740 000:573.431 - 0.015ms returns 0
T1740 000:573.443 JLINK_WriteReg(R8, 0x00000000)
T1740 000:573.454 - 0.015ms returns 0
T1740 000:573.465 JLINK_WriteReg(R9, 0x20000110)
T1740 000:573.476 - 0.015ms returns 0
T1740 000:573.488 JLINK_WriteReg(R10, 0x00000000)
T1740 000:573.498 - 0.015ms returns 0
T1740 000:573.510 JLINK_WriteReg(R11, 0x00000000)
T1740 000:573.521 - 0.015ms returns 0
T1740 000:573.533 JLINK_WriteReg(R12, 0x00000000)
T1740 000:573.543 - 0.015ms returns 0
T1740 000:573.555 JLINK_WriteReg(R13 (SP), 0x20001000)
T1740 000:573.566 - 0.016ms returns 0
T1740 000:573.578 JLINK_WriteReg(R14, 0x20000001)
T1740 000:573.589 - 0.015ms returns 0
T1740 000:573.601 JLINK_WriteReg(R15 (PC), 0x20000084)
T1740 000:573.612 - 0.015ms returns 0
T1740 000:573.624 JLINK_WriteReg(XPSR, 0x01000000)
T1740 000:573.634 - 0.015ms returns 0
T1740 000:573.647 JLINK_WriteReg(MSP, 0x20001000)
T1740 000:573.657 - 0.015ms returns 0
T1740 000:573.669 JLINK_WriteReg(PSP, 0x20001000)
T1740 000:573.679 - 0.015ms returns 0
T1740 000:573.692 JLINK_WriteReg(CFBP, 0x00000000)
T1740 000:573.702 - 0.015ms returns 0
T1740 000:573.714 JLINK_SetBPEx(Addr = 0x20000000, Type = 0xFFFFFFF2)
T1740 000:573.726 - 0.016ms returns 0x0000000D
T1740 000:573.738 JLINK_Go()
T1740 000:573.759   CPU_ReadMem(4 bytes @ 0xE0001000)
T1740 000:576.870 - 3.140ms
T1740 000:576.890 JLINK_IsHalted()
T1740 000:577.319 - 0.437ms returns FALSE
T1740 000:577.341 JLINK_HasError()
T1740 000:585.368 JLINK_IsHalted()
T1740 000:585.775 - 0.422ms returns FALSE
T1740 000:585.798 JLINK_HasError()
T1740 000:587.366 JLINK_IsHalted()
T1740 000:587.747 - 0.386ms returns FALSE
T1740 000:587.761 JLINK_HasError()
T1740 000:589.355 JLINK_IsHalted()
T1740 000:589.752 - 0.404ms returns FALSE
T1740 000:589.769 JLINK_HasError()
T1740 000:591.346 JLINK_IsHalted()
T1740 000:591.816 - 0.476ms returns FALSE
T1740 000:591.830 JLINK_HasError()
T1740 000:593.839 JLINK_IsHalted()
T1740 000:594.274 - 0.440ms returns FALSE
T1740 000:594.290 JLINK_HasError()
T1740 000:596.283 JLINK_IsHalted()
T1740 000:596.774 - 0.498ms returns FALSE
T1740 000:596.792 JLINK_HasError()
T1740 000:598.787 JLINK_IsHalted()
T1740 000:601.712   CPU_ReadMem(2 bytes @ 0x20000000)
T1740 000:602.144 - 3.368ms returns TRUE
T1740 000:602.169 JLINK_ReadReg(R15 (PC))
T1740 000:602.191 - 0.029ms returns 0x20000000
T1740 000:602.210 JLINK_ClrBPEx(BPHandle = 0x0000000D)
T1740 000:602.228 - 0.025ms returns 0x00
T1740 000:602.248 JLINK_ReadReg(R0)
T1740 000:602.264 - 0.024ms returns 0x00000000
T1740 000:603.807 JLINK_HasError()
T1740 000:603.851 JLINK_WriteReg(R0, 0x08003000)
T1740 000:603.876 - 0.032ms returns 0
T1740 000:603.896 JLINK_WriteReg(R1, 0x00000800)
T1740 000:603.913 - 0.032ms returns 0
T1740 000:603.946 JLINK_WriteReg(R2, 0x000000FF)
T1740 000:603.970 - 0.032ms returns 0
T1740 000:603.989 JLINK_WriteReg(R3, 0x00000000)
T1740 000:604.004 - 0.021ms returns 0
T1740 000:604.021 JLINK_WriteReg(R4, 0x00000000)
T1740 000:604.035 - 0.021ms returns 0
T1740 000:604.052 JLINK_WriteReg(R5, 0x00000000)
T1740 000:604.067 - 0.021ms returns 0
T1740 000:604.084 JLINK_WriteReg(R6, 0x00000000)
T1740 000:604.098 - 0.021ms returns 0
T1740 000:604.115 JLINK_WriteReg(R7, 0x00000000)
T1740 000:604.130 - 0.021ms returns 0
T1740 000:604.146 JLINK_WriteReg(R8, 0x00000000)
T1740 000:604.161 - 0.021ms returns 0
T1740 000:604.177 JLINK_WriteReg(R9, 0x20000110)
T1740 000:604.192 - 0.021ms returns 0
T1740 000:604.209 JLINK_WriteReg(R10, 0x00000000)
T1740 000:604.224 - 0.021ms returns 0
